
T24B4 159:617 SEGGER J-Link V4.72a Log File (0000ms, 0000ms total)
T24B4 159:617 DLL Compiled: Jun 26 2013 11:49:14 (0000ms, 0000ms total)
T24B4 159:617 Logging started @ 2020-12-28 10:14 (0000ms, 0000ms total)
T24B4 159:617 JLINK_SetWarnOutHandler(...) (0000ms, 0000ms total)
T24B4 159:617 JLINK_OpenEx(...)
Firmware: J-Link ARM V8 compiled Nov 28 2014 13:44:46
Hardware: V8.00
S/N: 805251123
Feature(s): RDI,FlashDL,FlashBP,JFlash,GDB  returns O.K. (0011ms, 0011ms total)
T24B4 159:628 JLINK_GetEmuCaps()  returns 0xB9FF7BBF (0000ms, 0011ms total)
T24B4 159:628 JLINK_TIF_GetAvailable(...) (0000ms, 0011ms total)
T24B4 159:628 JLINK_SetErrorOutHandler(...) (0000ms, 0011ms total)
T24B4 159:628 JLINK_ExecCommand("ProjectFile = "C:\Users\anshyang\Desktop\WORK\ÖÇÄÜ´°0\Progect\JLinkSettings.ini"", ...)  returns 0x00 (0001ms, 0012ms total)
T24B4 159:631 JLINK_ExecCommand("Device = STM32F103VE", ...)
                JLINK_AddMirrorAreaEx(Addr = 0x00000000, Size = 0x00000000) (0000ms, 0000ms total)
              Device "STM32F103VE" selected (512 KB flash, 64 KB RAM).  returns 0x00 (0005ms, 0017ms total)
T24B4 159:636 JLINK_ExecCommand("DisableConnectionTimeout", ...)  returns 0x00 (0000ms, 0017ms total)
T24B4 159:636 JLINK_GetHardwareVersion()  returns 0x13880 (0000ms, 0017ms total)
T24B4 159:636 JLINK_GetDLLVersion()  returns 47201 (0000ms, 0017ms total)
T24B4 159:636 JLINK_GetFirmwareString(...) (0000ms, 0017ms total)
T24B4 159:646 JLINK_GetDLLVersion()  returns 47201 (0000ms, 0017ms total)
T24B4 159:646 JLINK_GetCompileDateTime() (0000ms, 0017ms total)
T24B4 159:648 JLINK_GetFirmwareString(...) (0000ms, 0017ms total)
T24B4 159:653 JLINK_GetHardwareVersion()  returns 0x13880 (0000ms, 0017ms total)
T24B4 159:664 JLINK_TIF_Select(JLINKARM_TIF_JTAG)  returns 0x00 (0000ms, 0017ms total)
T24B4 159:664 JLINK_SetSpeed(5000) (0000ms, 0017ms total)
T24B4 159:664 JLINK_GetIdData(...) >0x2F8 JTAG>TotalIRLen = 9, IRPrint = 0x0011 >0x30 JTAG> >0x210 JTAG> >0x40 JTAG> >0x40 JTAG> >0x40 JTAG> >0x30 JTAG> >0x40 JTAG> >0x40 JTAG> >0x40 JTAG> >0x40 JTAG> >0x40 JTAG> >0x40 JTAG> >0x40 JTAG> >0x40 JTAG> >0x40 JTAG> >0x40 JTAG> >0x2F8 JTAG>TotalIRLen = 9, IRPrint = 0x0011 >0x30 JTAG> >0x210 JTAG> >0x80 JTAG> >0x40 JTAG> >0x40 JTAG> >0x50 JTAG> >0x40 JTAG> >0x40 JTAG> >0x40 JTAG> >0x50 JTAG> >0x40 JTAG> >0x40 JTAG> >0x40 JTAG> >0x30 JTAG> >0x40 JTAG>
 >0x50 JTAG> >0x40 JTAG> >0x38 JTAG> >0x80 JTAG> >0x40 JTAG> >0x40 JTAG> >0x50 JTAG> >0x40 JTAG> >0x40 JTAG> >0x40 JTAG> >0x50 JTAG> >0x40 JTAG> >0x40 JTAG> >0x30 JTAG> >0x40 JTAG> >0x40 JTAG> >0x40 JTAG> >0x40 JTAG> >0x40 JTAG> >0x50 JTAG> >0x40 JTAG> >0x80 JTAG> >0x40 JTAG> >0x30 JTAG> >0x40 JTAG> >0x40 JTAG> >0x40 JTAG> >0x40 JTAG> >0x40 JTAG> >0x50 JTAG> >0x40 JTAG> >0x80 JTAG> >0x40 JTAG> >0x30 JTAG> >0x40 JTAG> >0x50 JTAG> >0x40 JTAG> >0x40 JTAG> >0x40 JTAG> >0x30 JTAG> >0x40 JTAG> >0x50 JTAG>
 >0x40 JTAG>Found Cortex-M3 r1p1, Little endian. >0x50 JTAG> >0x50 JTAG> >0x40 JTAG> >0x40 JTAG> >0x30 JTAG> >0x30 JTAG> >0x50 JTAG> >0x40 JTAG> >0x80 JTAG> >0x40 JTAG> >0x30 JTAG> >0x40 JTAG> >0x50 JTAG> >0x40 JTAG> >0x40 JTAG> >0x40 JTAG> >0x30 JTAG> >0x30 JTAG> >0x50 JTAG> >0x40 JTAG> >0x80 JTAG> >0x40 JTAG> >0x30 JTAG> >0x40 JTAG> >0x50 JTAG> >0x40 JTAG>TPIU fitted. >0x40 JTAG> >0x40 JTAG> >0x30 JTAG> >0x40 JTAG> >0x50 JTAG> >0x40 JTAG>ETM fitted. >0x40 JTAG> >0x40 JTAG> >0x30 JTAG> >0x40 JTAG>
 >0x50 JTAG> >0x40 JTAG> >0x40 JTAG> >0x40 JTAG> >0x30 JTAG> >0x40 JTAG> >0x50 JTAG> >0x40 JTAG>FPUnit: 6 code (BP) slots and 2 literal slots >0x40 JTAG> >0x40 JTAG> >0x30 JTAG> >0x40 JTAG> >0x50 JTAG> >0x40 JTAG> >0x40 JTAG> >0x40 JTAG> >0x30 JTAG> >0x30 JTAG> >0x50 JTAG> >0x40 JTAG> >0x80 JTAG> >0x40 JTAG> >0x30 JTAG> >0x40 JTAG> >0x50 JTAG> >0x40 JTAG> >0x40 JTAG> >0x40 JTAG> >0x30 JTAG> >0x30 JTAG> >0x50 JTAG> >0x40 JTAG> ScanLen=9 NumDevices=2 aId[0]=0x3BA00477 aIrRead[0]=0 aScanLen[0]=0
 aScanRead[0]=0 (0053ms, 0070ms total)
T24B4 159:717 JLINK_JTAG_GetDeviceID(DeviceIndex = 0)  returns 0x3BA00477 (0000ms, 0070ms total)
T24B4 159:717 JLINK_JTAG_GetDeviceInfo(DeviceIndex = 0)  returns 0x00 (0000ms, 0070ms total)
T24B4 159:717 JLINK_JTAG_GetDeviceID(DeviceIndex = 1)  returns 0x6414041 (0000ms, 0070ms total)
T24B4 159:717 JLINK_JTAG_GetDeviceInfo(DeviceIndex = 1)  returns 0x00 (0000ms, 0070ms total)
T24B4 159:717 JLINK_GetDLLVersion()  returns 47201 (0000ms, 0070ms total)
T24B4 159:717 JLINK_CORE_GetFound()  returns 0x30000FF (0000ms, 0070ms total)
T24B4 159:718 JLINK_GetDebugInfo(0x100) -- Value=0xE00FF003  returns 0x00 (0000ms, 0070ms total)
T24B4 159:718 JLINK_GetDebugInfo(0x101)  returns 0xFFFFFFFF (0000ms, 0070ms total)
T24B4 159:718 JLINK_ReadMemEx(0xE0041FF0, 0x0010 Bytes, ..., AccessWidth = 33554436) -- CPU is running -- CPU_ReadMem(16 bytes @ 0xE0041FF0) -- Data:  0D 00 00 00 90 00 00 00 05 00 00 00 B1 00 00 00  returns 0x10 (0005ms, 0075ms total)
T24B4 159:723 JLINK_GetDebugInfo(0x102)  returns 0xFFFFFFFF (0000ms, 0075ms total)
T24B4 159:723 JLINK_GetDebugInfo(0x103)  returns 0xFFFFFFFF (0000ms, 0075ms total)
T24B4 159:723 JLINK_ReadMemEx(0xE0040FF0, 0x0010 Bytes, ..., AccessWidth = 33554436) -- CPU is running -- CPU_ReadMem(16 bytes @ 0xE0040FF0) -- Data:  0D 00 00 00 90 00 00 00 05 00 00 00 B1 00 00 00  returns 0x10 (0001ms, 0076ms total)
T24B4 159:724 JLINK_GetDebugInfo(0x104)  returns 0xFFFFFFFF (0000ms, 0076ms total)
T24B4 159:724 JLINK_GetDebugInfo(0x105)  returns 0xFFFFFFFF (0000ms, 0076ms total)
T24B4 159:724 JLINK_GetDebugInfo(0x106)  returns 0xFFFFFFFF (0000ms, 0076ms total)
T24B4 159:724 JLINK_GetDebugInfo(0x107)  returns 0xFFFFFFFF (0000ms, 0076ms total)
T24B4 159:724 JLINK_GetDebugInfo(0x10C)  returns 0xFFFFFFFF (0000ms, 0076ms total)
T24B4 159:724 JLINK_ReadMemU32(0xE000ED00, 0x0001 Items, ...) -- CPU is running -- CPU_ReadMem(4 bytes @ 0xE000ED00) -- Data:  31 C2 1F 41  returns 0x01 (0000ms, 0076ms total)
T24B4 159:724 JLINK_GetDebugInfo(0x10F)  returns 0xFFFFFFFF (0000ms, 0076ms total)
T24B4 159:724 JLINK_SetResetType(JLINKARM_RESET_TYPE_NORMAL)  returns JLINKARM_RESET_TYPE_NORMAL (0000ms, 0076ms total)
T24B4 159:724 JLINK_Reset() >0x88 JTAG> >0x80 JTAG> >0x40 JTAG> >0x40 JTAG> >0x50 JTAG> >0x40 JTAG> >0x40 JTAG> >0x40 JTAG> >0x50 JTAG> >0x40 JTAG> >0x40 JTAG> >0x30 JTAG> >0x40 JTAG> >0x40 JTAG> >0x40 JTAG> >0x40 JTAG> >0x40 JTAG> >0x50 JTAG> >0x40 JTAG> >0x80 JTAG> >0x40 JTAG> >0x30 JTAG> >0x40 JTAG> >0x40 JTAG> >0x40 JTAG> >0x40 JTAG> >0x40 JTAG> >0x50 JTAG> >0x40 JTAG> >0x80 JTAG> >0x40 JTAG> >0x30 JTAG> >0x40 JTAG> >0x50 JTAG> >0x40 JTAG> >0x40 JTAG> >0x40 JTAG> >0x30 JTAG> >0x40 JTAG> >0x50 JTAG>
 >0x40 JTAG>Found Cortex-M3 r1p1, Little endian. >0x50 JTAG> >0x50 JTAG> >0x40 JTAG> >0x40 JTAG> >0x30 JTAG> >0x30 JTAG> >0x50 JTAG> >0x40 JTAG> >0x80 JTAG> >0x40 JTAG> >0x30 JTAG> >0x40 JTAG> >0x50 JTAG> >0x40 JTAG> >0x40 JTAG> >0x40 JTAG> >0x30 JTAG> >0x40 JTAG> >0x50 JTAG> >0x40 JTAG>TPIU fitted. >0x40 JTAG> >0x40 JTAG> >0x30 JTAG> >0x40 JTAG> >0x50 JTAG> >0x40 JTAG>ETM fitted. >0x40 JTAG> >0x40 JTAG> >0x30 JTAG> >0x40 JTAG> >0x50 JTAG> >0x40 JTAG> >0x40 JTAG> >0x40 JTAG> >0x30 JTAG> >0x40 JTAG>
 >0x50 JTAG> >0x40 JTAG>FPUnit: 6 code (BP) slots and 2 literal slots >0x40 JTAG> >0x40 JTAG> >0x30 JTAG> >0x40 JTAG> >0x50 JTAG> >0x40 JTAG> >0x40 JTAG> >0x40 JTAG> >0x30 JTAG> >0x40 JTAG> >0x50 JTAG> >0x40 JTAG> >0x40 JTAG> >0x40 JTAG> >0x30 JTAG> >0x30 JTAG> >0x50 JTAG> >0x40 JTAG> -- CPU is running -- CPU_WriteMem(4 bytes @ 0xE000EDF0) -- CPU is running -- CPU_WriteMem(4 bytes @ 0xE000EDFC) -- CPU is running -- CPU_WriteMem(4 bytes @ 0xE000ED0C) -- CPU is running -- CPU_ReadMem(4 bytes @ 0xE000EDF0)
 -- CPU is running -- CPU_ReadMem(4 bytes @ 0xE000EDF0) -- CPU is running -- CPU_WriteMem(4 bytes @ 0xE000EDF0) -- CPU is running -- CPU_WriteMem(4 bytes @ 0xE000EDFC) -- CPU is running -- CPU_ReadMem(4 bytes @ 0xE000EDF0) >0xD0 JTAG> >0x40 JTAG> >0x30 JTAG> >0x40 JTAG> >0x50 JTAG> >0x40 JTAG> -- CPU_WriteMem(4 bytes @ 0xE000EDFC) -- CPU_WriteMem(4 bytes @ 0xE0001028) -- CPU_WriteMem(4 bytes @ 0xE0001038) -- CPU_WriteMem(4 bytes @ 0xE0001048) -- CPU_WriteMem(4 bytes @ 0xE0001058)
 -- CPU_WriteMem(4 bytes @ 0xE0002000) (0060ms, 0136ms total)
T24B4 159:784 JLINK_Halt()  returns 0x00 (0000ms, 0136ms total)
T24B4 159:784 JLINK_ReadMemU32(0xE000EDF0, 0x0001 Items, ...) -- CPU_ReadMem(4 bytes @ 0xE000EDF0) -- Data:  03 00 03 00  returns 0x01 (0001ms, 0137ms total)
T24B4 159:785 JLINK_WriteU32(0xE000EDF0, 0xA05F0003) -- CPU_WriteMem(4 bytes @ 0xE000EDF0)  returns 0x00 (0000ms, 0137ms total)
T24B4 159:785 JLINK_WriteU32(0xE000EDFC, 0x01000000) -- CPU_WriteMem(4 bytes @ 0xE000EDFC)  returns 0x00 (0001ms, 0138ms total)
T24B4 159:792 JLINK_GetHWStatus(...)  returns 0x00 (0000ms, 0138ms total)
T24B4 159:796 JLINK_GetNumBPUnits(Type = 0xFFFFFF00)  returns 0x06 (0000ms, 0138ms total)
T24B4 159:796 JLINK_GetNumBPUnits(Type = 0xF0)  returns 0x2000 (0000ms, 0138ms total)
T24B4 159:796 JLINK_GetNumWPUnits()  returns 0x04 (0000ms, 0138ms total)
T24B4 159:801 JLINK_GetSpeed()  returns 0x12C0 (0000ms, 0138ms total)
T24B4 159:804 JLINK_ReadMemU32(0xE000E004, 0x0001 Items, ...) -- CPU_ReadMem(4 bytes @ 0xE000E004) -- Data:  01 00 00 00  returns 0x01 (0000ms, 0138ms total)
T24B4 159:804 JLINK_ReadMemU32(0xE000E004, 0x0001 Items, ...) -- CPU_ReadMem(4 bytes @ 0xE000E004) -- Data:  01 00 00 00  returns 0x01 (0002ms, 0140ms total)
T24B4 159:806 JLINK_WriteMemEx(0xE0001000, 0x001C Bytes, ..., AccessWidth = 33554436) -- Data:  01 00 00 00 00 00 00 00 00 00 00 00 00 00 00 00 ... -- CPU_WriteMem(28 bytes @ 0xE0001000)  returns 0x1C (0000ms, 0140ms total)
T24B4 159:806 JLINK_Halt()  returns 0x00 (0000ms, 0140ms total)
T24B4 159:806 JLINK_IsHalted()  returns TRUE (0000ms, 0140ms total)
T24B4 159:808 JLINK_WriteMem(0x20000000, 0x0164 Bytes, ...) -- Data:  00 BE 0A E0 0D 78 2D 06 68 40 08 24 40 00 00 D3 ... -- CPU_WriteMem(356 bytes @ 0x20000000)  returns 0x164 (0004ms, 0144ms total)
T24B4 159:812 JLINK_WriteReg(R0, 0x08000000)  returns 0x00 (0000ms, 0144ms total)
T24B4 159:812 JLINK_WriteReg(R1, 0x00B71B00)  returns 0x00 (0000ms, 0144ms total)
T24B4 159:812 JLINK_WriteReg(R2, 0x00000001)  returns 0x00 (0000ms, 0144ms total)
T24B4 159:812 JLINK_WriteReg(R3, 0x00000000)  returns 0x00 (0000ms, 0144ms total)
T24B4 159:812 JLINK_WriteReg(R4, 0x00000000)  returns 0x00 (0000ms, 0144ms total)
T24B4 159:812 JLINK_WriteReg(R5, 0x00000000)  returns 0x00 (0000ms, 0144ms total)
T24B4 159:812 JLINK_WriteReg(R6, 0x00000000)  returns 0x00 (0000ms, 0144ms total)
T24B4 159:812 JLINK_WriteReg(R7, 0x00000000)  returns 0x00 (0000ms, 0144ms total)
T24B4 159:812 JLINK_WriteReg(R8, 0x00000000)  returns 0x00 (0000ms, 0144ms total)
T24B4 159:812 JLINK_WriteReg(R9, 0x20000160)  returns 0x00 (0000ms, 0144ms total)
T24B4 159:812 JLINK_WriteReg(R10, 0x00000000)  returns 0x00 (0000ms, 0144ms total)
T24B4 159:812 JLINK_WriteReg(R11, 0x00000000)  returns 0x00 (0000ms, 0144ms total)
T24B4 159:812 JLINK_WriteReg(R12, 0x00000000)  returns 0x00 (0000ms, 0144ms total)
T24B4 159:812 JLINK_WriteReg(R13 (SP), 0x20001000)  returns 0x00 (0000ms, 0144ms total)
T24B4 159:812 JLINK_WriteReg(R14, 0x20000001)  returns 0x00 (0000ms, 0144ms total)
T24B4 159:812 JLINK_WriteReg(R15 (PC), 0x20000038)  returns 0x00 (0000ms, 0144ms total)
T24B4 159:812 JLINK_WriteReg(XPSR, 0x01000000)  returns 0x00 (0000ms, 0144ms total)
T24B4 159:812 JLINK_WriteReg(MSP, 0x20001000)  returns 0x00 (0000ms, 0144ms total)
T24B4 159:812 JLINK_WriteReg(PSP, 0x20001000)  returns 0x00 (0000ms, 0144ms total)
T24B4 159:812 JLINK_WriteReg(CFBP, 0x00000000)  returns 0x00 (0000ms, 0144ms total)
T24B4 159:812 JLINK_SetBPEx(Addr = 0x20000000, Type = 0xFFFFFFF2) -- CPU_ReadMem(2 bytes @ 0x20000000)  returns 0x00000001 (0001ms, 0145ms total)
T24B4 159:813 JLINK_Go() -- CPU_WriteMem(2 bytes @ 0x20000000) -- CPU_WriteMem(4 bytes @ 0xE0002008) -- CPU_WriteMem(4 bytes @ 0xE000200C) -- CPU_WriteMem(4 bytes @ 0xE0002010) -- CPU_WriteMem(4 bytes @ 0xE0002014) -- CPU_WriteMem(4 bytes @ 0xE0002018) -- CPU_WriteMem(4 bytes @ 0xE000201C) (0006ms, 0151ms total)
T24B4 159:819 JLINK_IsHalted() -- CPU_ReadMem(2 bytes @ 0x20000000)  returns TRUE (0004ms, 0155ms total)
T24B4 159:823 JLINK_ReadReg(R15 (PC))  returns 0x20000000 (0000ms, 0151ms total)
T24B4 159:823 JLINK_ClrBPEx(BPHandle = 0x00000001)  returns 0x00 (0000ms, 0151ms total)
T24B4 159:823 JLINK_ReadReg(R0)  returns 0x00000000 (0000ms, 0151ms total)
T24B4 159:823 JLINK_WriteReg(R0, 0x08000000)  returns 0x00 (0000ms, 0151ms total)
T24B4 159:823 JLINK_WriteReg(R1, 0x00B71B00)  returns 0x00 (0000ms, 0151ms total)
T24B4 159:823 JLINK_WriteReg(R2, 0x00000001)  returns 0x00 (0000ms, 0151ms total)
T24B4 159:823 JLINK_WriteReg(R3, 0x00000000)  returns 0x00 (0000ms, 0151ms total)
T24B4 159:823 JLINK_WriteReg(R4, 0x00000000)  returns 0x00 (0000ms, 0151ms total)
T24B4 159:823 JLINK_WriteReg(R5, 0x00000000)  returns 0x00 (0000ms, 0151ms total)
T24B4 159:823 JLINK_WriteReg(R6, 0x00000000)  returns 0x00 (0000ms, 0151ms total)
T24B4 159:823 JLINK_WriteReg(R7, 0x00000000)  returns 0x00 (0000ms, 0151ms total)
T24B4 159:823 JLINK_WriteReg(R8, 0x00000000)  returns 0x00 (0000ms, 0151ms total)
T24B4 159:823 JLINK_WriteReg(R9, 0x20000160)  returns 0x00 (0000ms, 0151ms total)
T24B4 159:823 JLINK_WriteReg(R10, 0x00000000)  returns 0x00 (0000ms, 0151ms total)
T24B4 159:823 JLINK_WriteReg(R11, 0x00000000)  returns 0x00 (0000ms, 0151ms total)
T24B4 159:823 JLINK_WriteReg(R12, 0x00000000)  returns 0x00 (0000ms, 0151ms total)
T24B4 159:823 JLINK_WriteReg(R13 (SP), 0x20001000)  returns 0x00 (0000ms, 0151ms total)
T24B4 159:823 JLINK_WriteReg(R14, 0x20000001)  returns 0x00 (0000ms, 0151ms total)
T24B4 159:823 JLINK_WriteReg(R15 (PC), 0x2000007C)  returns 0x00 (0000ms, 0151ms total)
T24B4 159:823 JLINK_WriteReg(XPSR, 0x01000000)  returns 0x00 (0000ms, 0151ms total)
T24B4 159:823 JLINK_WriteReg(MSP, 0x20001000)  returns 0x00 (0000ms, 0151ms total)
T24B4 159:823 JLINK_WriteReg(PSP, 0x20001000)  returns 0x00 (0000ms, 0151ms total)
T24B4 159:823 JLINK_WriteReg(CFBP, 0x00000000)  returns 0x00 (0000ms, 0151ms total)
T24B4 159:823 JLINK_SetBPEx(Addr = 0x20000000, Type = 0xFFFFFFF2)  returns 0x00000002 (0000ms, 0151ms total)
T24B4 159:823 JLINK_Go() (0002ms, 0153ms total)
T24B4 159:825 JLINK_IsHalted()  returns FALSE (0000ms, 0153ms total)
T24B4 159:858 JLINK_IsHalted() -- CPU_ReadMem(2 bytes @ 0x20000000)  returns TRUE (0004ms, 0157ms total)
T24B4 159:862 JLINK_ReadReg(R15 (PC))  returns 0x20000000 (0000ms, 0153ms total)
T24B4 159:862 JLINK_ClrBPEx(BPHandle = 0x00000002)  returns 0x00 (0000ms, 0153ms total)
T24B4 159:862 JLINK_ReadReg(R0)  returns 0x00000000 (0000ms, 0153ms total)
T24B4 159:913 JLINK_WriteReg(R0, 0x00000001)  returns 0x00 (0000ms, 0153ms total)
T24B4 159:913 JLINK_WriteReg(R1, 0x00B71B00)  returns 0x00 (0000ms, 0153ms total)
T24B4 159:913 JLINK_WriteReg(R2, 0x00000001)  returns 0x00 (0000ms, 0153ms total)
T24B4 159:913 JLINK_WriteReg(R3, 0x00000000)  returns 0x00 (0000ms, 0153ms total)
T24B4 159:913 JLINK_WriteReg(R4, 0x00000000)  returns 0x00 (0000ms, 0153ms total)
T24B4 159:913 JLINK_WriteReg(R5, 0x00000000)  returns 0x00 (0000ms, 0153ms total)
T24B4 159:913 JLINK_WriteReg(R6, 0x00000000)  returns 0x00 (0000ms, 0153ms total)
T24B4 159:913 JLINK_WriteReg(R7, 0x00000000)  returns 0x00 (0000ms, 0153ms total)
T24B4 159:913 JLINK_WriteReg(R8, 0x00000000)  returns 0x00 (0000ms, 0153ms total)
T24B4 159:913 JLINK_WriteReg(R9, 0x20000160)  returns 0x00 (0000ms, 0153ms total)
T24B4 159:913 JLINK_WriteReg(R10, 0x00000000)  returns 0x00 (0000ms, 0153ms total)
T24B4 159:913 JLINK_WriteReg(R11, 0x00000000)  returns 0x00 (0000ms, 0153ms total)
T24B4 159:913 JLINK_WriteReg(R12, 0x00000000)  returns 0x00 (0000ms, 0153ms total)
T24B4 159:913 JLINK_WriteReg(R13 (SP), 0x20001000)  returns 0x00 (0000ms, 0153ms total)
T24B4 159:913 JLINK_WriteReg(R14, 0x20000001)  returns 0x00 (0000ms, 0153ms total)
T24B4 159:913 JLINK_WriteReg(R15 (PC), 0x2000006A)  returns 0x00 (0000ms, 0153ms total)
T24B4 159:913 JLINK_WriteReg(XPSR, 0x01000000)  returns 0x00 (0000ms, 0153ms total)
T24B4 159:913 JLINK_WriteReg(MSP, 0x20001000)  returns 0x00 (0000ms, 0153ms total)
T24B4 159:913 JLINK_WriteReg(PSP, 0x20001000)  returns 0x00 (0000ms, 0153ms total)
T24B4 159:913 JLINK_WriteReg(CFBP, 0x00000000)  returns 0x00 (0000ms, 0153ms total)
T24B4 159:913 JLINK_SetBPEx(Addr = 0x20000000, Type = 0xFFFFFFF2)  returns 0x00000003 (0000ms, 0153ms total)
T24B4 159:913 JLINK_Go() (0002ms, 0155ms total)
T24B4 159:915 JLINK_IsHalted() -- CPU_ReadMem(2 bytes @ 0x20000000)  returns TRUE (0004ms, 0159ms total)
T24B4 159:919 JLINK_ReadReg(R15 (PC))  returns 0x20000000 (0000ms, 0155ms total)
T24B4 159:919 JLINK_ClrBPEx(BPHandle = 0x00000003)  returns 0x00 (0000ms, 0155ms total)
T24B4 159:919 JLINK_ReadReg(R0)  returns 0x00000000 (0000ms, 0155ms total)
T24B4 159:922 JLINK_WriteMem(0x20000000, 0x0164 Bytes, ...) -- Data:  00 BE 0A E0 0D 78 2D 06 68 40 08 24 40 00 00 D3 ... -- CPU_WriteMem(356 bytes @ 0x20000000)  returns 0x164 (0004ms, 0159ms total)
T24B4 159:926 JLINK_WriteReg(R0, 0x08000000)  returns 0x00 (0000ms, 0159ms total)
T24B4 159:926 JLINK_WriteReg(R1, 0x00B71B00)  returns 0x00 (0000ms, 0159ms total)
T24B4 159:926 JLINK_WriteReg(R2, 0x00000002)  returns 0x00 (0000ms, 0159ms total)
T24B4 159:926 JLINK_WriteReg(R3, 0x00000000)  returns 0x00 (0000ms, 0159ms total)
T24B4 159:926 JLINK_WriteReg(R4, 0x00000000)  returns 0x00 (0000ms, 0159ms total)
T24B4 159:926 JLINK_WriteReg(R5, 0x00000000)  returns 0x00 (0000ms, 0159ms total)
T24B4 159:926 JLINK_WriteReg(R6, 0x00000000)  returns 0x00 (0000ms, 0159ms total)
T24B4 159:926 JLINK_WriteReg(R7, 0x00000000)  returns 0x00 (0000ms, 0159ms total)
T24B4 159:926 JLINK_WriteReg(R8, 0x00000000)  returns 0x00 (0000ms, 0159ms total)
T24B4 159:926 JLINK_WriteReg(R9, 0x20000160)  returns 0x00 (0000ms, 0159ms total)
T24B4 159:926 JLINK_WriteReg(R10, 0x00000000)  returns 0x00 (0000ms, 0159ms total)
T24B4 159:926 JLINK_WriteReg(R11, 0x00000000)  returns 0x00 (0000ms, 0159ms total)
T24B4 159:926 JLINK_WriteReg(R12, 0x00000000)  returns 0x00 (0000ms, 0159ms total)
T24B4 159:926 JLINK_WriteReg(R13 (SP), 0x20001000)  returns 0x00 (0000ms, 0159ms total)
T24B4 159:926 JLINK_WriteReg(R14, 0x20000001)  returns 0x00 (0000ms, 0159ms total)
T24B4 159:926 JLINK_WriteReg(R15 (PC), 0x20000038)  returns 0x00 (0000ms, 0159ms total)
T24B4 159:926 JLINK_WriteReg(XPSR, 0x01000000)  returns 0x00 (0000ms, 0159ms total)
T24B4 159:926 JLINK_WriteReg(MSP, 0x20001000)  returns 0x00 (0000ms, 0159ms total)
T24B4 159:926 JLINK_WriteReg(PSP, 0x20001000)  returns 0x00 (0000ms, 0159ms total)
T24B4 159:926 JLINK_WriteReg(CFBP, 0x00000000)  returns 0x00 (0000ms, 0159ms total)
T24B4 159:926 JLINK_SetBPEx(Addr = 0x20000000, Type = 0xFFFFFFF2) -- CPU_ReadMem(2 bytes @ 0x20000000)  returns 0x00000004 (0001ms, 0160ms total)
T24B4 159:927 JLINK_Go() -- CPU_WriteMem(2 bytes @ 0x20000000) (0001ms, 0161ms total)
T24B4 159:928 JLINK_IsHalted() -- CPU_ReadMem(2 bytes @ 0x20000000)  returns TRUE (0004ms, 0165ms total)
T24B4 159:932 JLINK_ReadReg(R15 (PC))  returns 0x20000000 (0000ms, 0161ms total)
T24B4 159:932 JLINK_ClrBPEx(BPHandle = 0x00000004)  returns 0x00 (0000ms, 0161ms total)
T24B4 159:932 JLINK_ReadReg(R0)  returns 0x00000000 (0000ms, 0161ms total)
T24B4 159:932 JLINK_WriteMem(0x20000164, 0x029C Bytes, ...) -- Data:  50 29 00 20 ED 3C 00 08 45 01 00 08 47 01 00 08 ... -- CPU_WriteMem(668 bytes @ 0x20000164)  returns 0x29C (0006ms, 0167ms total)
T24B4 159:938 JLINK_WriteMem(0x20000400, 0x0164 Bytes, ...) -- Data:  95 49 08 60 2C E0 B1 A1 20 46 04 F0 3D FD 88 B1 ... -- CPU_WriteMem(356 bytes @ 0x20000400)  returns 0x164 (0003ms, 0170ms total)
T24B4 159:941 JLINK_WriteReg(R0, 0x08000000)  returns 0x00 (0000ms, 0170ms total)
T24B4 159:941 JLINK_WriteReg(R1, 0x00000400)  returns 0x00 (0000ms, 0170ms total)
T24B4 159:941 JLINK_WriteReg(R2, 0x20000164)  returns 0x00 (0000ms, 0170ms total)
T24B4 159:941 JLINK_WriteReg(R3, 0x00000000)  returns 0x00 (0000ms, 0170ms total)
T24B4 159:941 JLINK_WriteReg(R4, 0x00000000)  returns 0x00 (0000ms, 0170ms total)
T24B4 159:941 JLINK_WriteReg(R5, 0x00000000)  returns 0x00 (0000ms, 0170ms total)
T24B4 159:941 JLINK_WriteReg(R6, 0x00000000)  returns 0x00 (0000ms, 0170ms total)
T24B4 159:941 JLINK_WriteReg(R7, 0x00000000)  returns 0x00 (0000ms, 0170ms total)
T24B4 159:941 JLINK_WriteReg(R8, 0x00000000)  returns 0x00 (0000ms, 0170ms total)
T24B4 159:941 JLINK_WriteReg(R9, 0x20000160)  returns 0x00 (0000ms, 0170ms total)
T24B4 159:941 JLINK_WriteReg(R10, 0x00000000)  returns 0x00 (0000ms, 0170ms total)
T24B4 159:941 JLINK_WriteReg(R11, 0x00000000)  returns 0x00 (0000ms, 0170ms total)
T24B4 159:941 JLINK_WriteReg(R12, 0x00000000)  returns 0x00 (0000ms, 0170ms total)
T24B4 159:941 JLINK_WriteReg(R13 (SP), 0x20001000)  returns 0x00 (0000ms, 0170ms total)
T24B4 159:941 JLINK_WriteReg(R14, 0x20000001)  returns 0x00 (0000ms, 0170ms total)
T24B4 159:941 JLINK_WriteReg(R15 (PC), 0x200000F4)  returns 0x00 (0000ms, 0170ms total)
T24B4 159:941 JLINK_WriteReg(XPSR, 0x01000000)  returns 0x00 (0000ms, 0170ms total)
T24B4 159:941 JLINK_WriteReg(MSP, 0x20001000)  returns 0x00 (0000ms, 0170ms total)
T24B4 159:941 JLINK_WriteReg(PSP, 0x20001000)  returns 0x00 (0000ms, 0170ms total)
T24B4 159:941 JLINK_WriteReg(CFBP, 0x00000000)  returns 0x00 (0000ms, 0170ms total)
T24B4 159:941 JLINK_SetBPEx(Addr = 0x20000000, Type = 0xFFFFFFF2)  returns 0x00000005 (0000ms, 0170ms total)
T24B4 159:941 JLINK_Go() (0002ms, 0172ms total)
T24B4 159:943 JLINK_IsHalted()  returns FALSE (0000ms, 0172ms total)
T24B4 159:950 JLINK_IsHalted()  returns FALSE (0000ms, 0172ms total)
T24B4 159:952 JLINK_IsHalted()  returns FALSE (0001ms, 0173ms total)
T24B4 159:954 JLINK_IsHalted()  returns FALSE (0000ms, 0172ms total)
T24B4 159:956 JLINK_IsHalted()  returns FALSE (0000ms, 0172ms total)
T24B4 159:957 JLINK_IsHalted()  returns FALSE (0001ms, 0173ms total)
T24B4 159:959 JLINK_IsHalted()  returns FALSE (0000ms, 0172ms total)
T24B4 159:961 JLINK_IsHalted()  returns FALSE (0000ms, 0172ms total)
T24B4 159:965 JLINK_IsHalted()  returns FALSE (0000ms, 0172ms total)
T24B4 159:967 JLINK_IsHalted()  returns FALSE (0000ms, 0172ms total)
T24B4 159:969 JLINK_IsHalted()  returns FALSE (0000ms, 0172ms total)
T24B4 159:971 JLINK_IsHalted()  returns FALSE (0001ms, 0173ms total)
T24B4 159:973 JLINK_IsHalted()  returns FALSE (0000ms, 0172ms total)
T24B4 159:975 JLINK_IsHalted() -- CPU_ReadMem(2 bytes @ 0x20000000)  returns TRUE (0003ms, 0175ms total)
T24B4 159:978 JLINK_ReadReg(R15 (PC))  returns 0x20000000 (0000ms, 0172ms total)
T24B4 159:978 JLINK_ClrBPEx(BPHandle = 0x00000005)  returns 0x00 (0000ms, 0172ms total)
T24B4 159:978 JLINK_ReadReg(R0)  returns 0x00000000 (0000ms, 0172ms total)
T24B4 159:978 JLINK_WriteMem(0x20000164, 0x029C Bytes, ...) -- Data:  3E 48 03 F0 90 FE AF F2 E7 01 3C 48 03 F0 8E FE ... -- CPU_WriteMem(668 bytes @ 0x20000164)  returns 0x29C (0006ms, 0178ms total)
T24B4 159:984 JLINK_WriteMem(0x20000400, 0x0164 Bytes, ...) -- Data:  C1 EB C0 10 4F F6 FF 71 01 EA C0 00 28 49 08 80 ... -- CPU_WriteMem(356 bytes @ 0x20000400)  returns 0x164 (0003ms, 0181ms total)
T24B4 159:988 JLINK_WriteReg(R0, 0x08000400)  returns 0x00 (0000ms, 0181ms total)
T24B4 159:988 JLINK_WriteReg(R1, 0x00000400)  returns 0x00 (0000ms, 0181ms total)
T24B4 159:988 JLINK_WriteReg(R2, 0x20000164)  returns 0x00 (0000ms, 0181ms total)
T24B4 159:988 JLINK_WriteReg(R3, 0x00000000)  returns 0x00 (0000ms, 0181ms total)
T24B4 159:988 JLINK_WriteReg(R4, 0x00000000)  returns 0x00 (0000ms, 0181ms total)
T24B4 159:988 JLINK_WriteReg(R5, 0x00000000)  returns 0x00 (0000ms, 0181ms total)
T24B4 159:988 JLINK_WriteReg(R6, 0x00000000)  returns 0x00 (0000ms, 0181ms total)
T24B4 159:988 JLINK_WriteReg(R7, 0x00000000)  returns 0x00 (0000ms, 0181ms total)
T24B4 159:988 JLINK_WriteReg(R8, 0x00000000)  returns 0x00 (0000ms, 0181ms total)
T24B4 159:988 JLINK_WriteReg(R9, 0x20000160)  returns 0x00 (0000ms, 0181ms total)
T24B4 159:988 JLINK_WriteReg(R10, 0x00000000)  returns 0x00 (0000ms, 0181ms total)
T24B4 159:988 JLINK_WriteReg(R11, 0x00000000)  returns 0x00 (0000ms, 0181ms total)
T24B4 159:988 JLINK_WriteReg(R12, 0x00000000)  returns 0x00 (0000ms, 0181ms total)
T24B4 159:988 JLINK_WriteReg(R13 (SP), 0x20001000)  returns 0x00 (0000ms, 0181ms total)
T24B4 159:988 JLINK_WriteReg(R14, 0x20000001)  returns 0x00 (0000ms, 0181ms total)
T24B4 159:988 JLINK_WriteReg(R15 (PC), 0x200000F4)  returns 0x00 (0000ms, 0181ms total)
T24B4 159:988 JLINK_WriteReg(XPSR, 0x01000000)  returns 0x00 (0000ms, 0181ms total)
T24B4 159:988 JLINK_WriteReg(MSP, 0x20001000)  returns 0x00 (0000ms, 0181ms total)
T24B4 159:988 JLINK_WriteReg(PSP, 0x20001000)  returns 0x00 (0000ms, 0181ms total)
T24B4 159:988 JLINK_WriteReg(CFBP, 0x00000000)  returns 0x00 (0000ms, 0181ms total)
T24B4 159:988 JLINK_SetBPEx(Addr = 0x20000000, Type = 0xFFFFFFF2)  returns 0x00000006 (0000ms, 0181ms total)
T24B4 159:988 JLINK_Go() (0002ms, 0183ms total)
T24B4 159:990 JLINK_IsHalted()  returns FALSE (0000ms, 0183ms total)
T24B4 159:994 JLINK_IsHalted()  returns FALSE (0000ms, 0183ms total)
T24B4 159:995 JLINK_IsHalted()  returns FALSE (0001ms, 0184ms total)
T24B4 159:997 JLINK_IsHalted()  returns FALSE (0001ms, 0184ms total)
T24B4 159:999 JLINK_IsHalted()  returns FALSE (0000ms, 0183ms total)
T24B4 160:001 JLINK_IsHalted()  returns FALSE (0000ms, 0183ms total)
T24B4 160:002 JLINK_IsHalted()  returns FALSE (0001ms, 0184ms total)
T24B4 160:004 JLINK_IsHalted()  returns FALSE (0000ms, 0183ms total)
T24B4 160:006 JLINK_IsHalted()  returns FALSE (0000ms, 0183ms total)
T24B4 160:008 JLINK_IsHalted()  returns FALSE (0000ms, 0183ms total)
T24B4 160:011 JLINK_IsHalted()  returns FALSE (0001ms, 0184ms total)
T24B4 160:013 JLINK_IsHalted()  returns FALSE (0000ms, 0183ms total)
T24B4 160:015 JLINK_IsHalted()  returns FALSE (0000ms, 0183ms total)
T24B4 160:017 JLINK_IsHalted()  returns FALSE (0001ms, 0184ms total)
T24B4 160:019 JLINK_IsHalted()  returns FALSE (0001ms, 0184ms total)
T24B4 160:021 JLINK_IsHalted() -- CPU_ReadMem(2 bytes @ 0x20000000)  returns TRUE (0004ms, 0187ms total)
T24B4 160:025 JLINK_ReadReg(R15 (PC))  returns 0x20000000 (0000ms, 0183ms total)
T24B4 160:025 JLINK_ClrBPEx(BPHandle = 0x00000006)  returns 0x00 (0000ms, 0183ms total)
T24B4 160:025 JLINK_ReadReg(R0)  returns 0x00000000 (0000ms, 0183ms total)
T24B4 160:025 JLINK_WriteMem(0x20000164, 0x029C Bytes, ...) -- Data:  0C 00 AD F8 0E 00 AD F8 10 00 AD F8 14 00 0C 20 ... -- CPU_WriteMem(668 bytes @ 0x20000164)  returns 0x29C (0006ms, 0189ms total)
T24B4 160:031 JLINK_WriteMem(0x20000400, 0x0164 Bytes, ...) -- Data:  08 60 14 E0 00 20 39 49 C1 F8 60 08 40 F2 27 71 ... -- CPU_WriteMem(356 bytes @ 0x20000400)  returns 0x164 (0003ms, 0192ms total)
T24B4 160:034 JLINK_WriteReg(R0, 0x08000800)  returns 0x00 (0000ms, 0192ms total)
T24B4 160:034 JLINK_WriteReg(R1, 0x00000400)  returns 0x00 (0000ms, 0192ms total)
T24B4 160:034 JLINK_WriteReg(R2, 0x20000164)  returns 0x00 (0000ms, 0192ms total)
T24B4 160:034 JLINK_WriteReg(R3, 0x00000000)  returns 0x00 (0000ms, 0192ms total)
T24B4 160:034 JLINK_WriteReg(R4, 0x00000000)  returns 0x00 (0000ms, 0192ms total)
T24B4 160:034 JLINK_WriteReg(R5, 0x00000000)  returns 0x00 (0000ms, 0192ms total)
T24B4 160:034 JLINK_WriteReg(R6, 0x00000000)  returns 0x00 (0000ms, 0192ms total)
T24B4 160:034 JLINK_WriteReg(R7, 0x00000000)  returns 0x00 (0000ms, 0192ms total)
T24B4 160:034 JLINK_WriteReg(R8, 0x00000000)  returns 0x00 (0000ms, 0192ms total)
T24B4 160:034 JLINK_WriteReg(R9, 0x20000160)  returns 0x00 (0000ms, 0192ms total)
T24B4 160:034 JLINK_WriteReg(R10, 0x00000000)  returns 0x00 (0000ms, 0192ms total)
T24B4 160:034 JLINK_WriteReg(R11, 0x00000000)  returns 0x00 (0000ms, 0192ms total)
T24B4 160:034 JLINK_WriteReg(R12, 0x00000000)  returns 0x00 (0000ms, 0192ms total)
T24B4 160:034 JLINK_WriteReg(R13 (SP), 0x20001000)  returns 0x00 (0000ms, 0192ms total)
T24B4 160:034 JLINK_WriteReg(R14, 0x20000001)  returns 0x00 (0000ms, 0192ms total)
T24B4 160:034 JLINK_WriteReg(R15 (PC), 0x200000F4)  returns 0x00 (0000ms, 0192ms total)
T24B4 160:034 JLINK_WriteReg(XPSR, 0x01000000)  returns 0x00 (0000ms, 0192ms total)
T24B4 160:034 JLINK_WriteReg(MSP, 0x20001000)  returns 0x00 (0000ms, 0192ms total)
T24B4 160:034 JLINK_WriteReg(PSP, 0x20001000)  returns 0x00 (0000ms, 0192ms total)
T24B4 160:034 JLINK_WriteReg(CFBP, 0x00000000)  returns 0x00 (0000ms, 0192ms total)
T24B4 160:034 JLINK_SetBPEx(Addr = 0x20000000, Type = 0xFFFFFFF2)  returns 0x00000007 (0000ms, 0192ms total)
T24B4 160:034 JLINK_Go() (0002ms, 0194ms total)
T24B4 160:036 JLINK_IsHalted()  returns FALSE (0000ms, 0194ms total)
T24B4 160:040 JLINK_IsHalted()  returns FALSE (0000ms, 0194ms total)
T24B4 160:041 JLINK_IsHalted()  returns FALSE (0001ms, 0195ms total)
T24B4 160:043 JLINK_IsHalted()  returns FALSE (0001ms, 0195ms total)
T24B4 160:045 JLINK_IsHalted()  returns FALSE (0000ms, 0194ms total)
T24B4 160:047 JLINK_IsHalted()  returns FALSE (0000ms, 0194ms total)
T24B4 160:048 JLINK_IsHalted()  returns FALSE (0001ms, 0195ms total)
T24B4 160:050 JLINK_IsHalted()  returns FALSE (0000ms, 0194ms total)
T24B4 160:052 JLINK_IsHalted()  returns FALSE (0000ms, 0194ms total)
T24B4 160:054 JLINK_IsHalted()  returns FALSE (0000ms, 0194ms total)
T24B4 160:057 JLINK_IsHalted()  returns FALSE (0000ms, 0194ms total)
T24B4 160:059 JLINK_IsHalted()  returns FALSE (0001ms, 0195ms total)
T24B4 160:061 JLINK_IsHalted()  returns FALSE (0001ms, 0195ms total)
T24B4 160:063 JLINK_IsHalted()  returns FALSE (0000ms, 0194ms total)
T24B4 160:064 JLINK_IsHalted()  returns FALSE (0001ms, 0195ms total)
T24B4 160:066 JLINK_IsHalted() -- CPU_ReadMem(2 bytes @ 0x20000000)  returns TRUE (0004ms, 0198ms total)
T24B4 160:070 JLINK_ReadReg(R15 (PC))  returns 0x20000000 (0000ms, 0194ms total)
T24B4 160:070 JLINK_ClrBPEx(BPHandle = 0x00000007)  returns 0x00 (0000ms, 0194ms total)
T24B4 160:070 JLINK_ReadReg(R0)  returns 0x00000000 (0000ms, 0194ms total)
T24B4 160:070 JLINK_WriteMem(0x20000164, 0x029C Bytes, ...) -- Data:  02 48 01 F0 F7 FF 08 BD 00 10 01 40 00 0C 01 40 ... -- CPU_WriteMem(668 bytes @ 0x20000164)  returns 0x29C (0006ms, 0200ms total)
T24B4 160:076 JLINK_WriteMem(0x20000400, 0x0164 Bytes, ...) -- Data:  75 48 00 68 10 B9 75 48 00 68 01 E0 72 48 00 68 ... -- CPU_WriteMem(356 bytes @ 0x20000400)  returns 0x164 (0003ms, 0203ms total)
T24B4 160:079 JLINK_WriteReg(R0, 0x08000C00)  returns 0x00 (0000ms, 0203ms total)
T24B4 160:079 JLINK_WriteReg(R1, 0x00000400)  returns 0x00 (0000ms, 0203ms total)
T24B4 160:079 JLINK_WriteReg(R2, 0x20000164)  returns 0x00 (0000ms, 0203ms total)
T24B4 160:079 JLINK_WriteReg(R3, 0x00000000)  returns 0x00 (0000ms, 0203ms total)
T24B4 160:079 JLINK_WriteReg(R4, 0x00000000)  returns 0x00 (0000ms, 0203ms total)
T24B4 160:079 JLINK_WriteReg(R5, 0x00000000)  returns 0x00 (0000ms, 0203ms total)
T24B4 160:079 JLINK_WriteReg(R6, 0x00000000)  returns 0x00 (0000ms, 0203ms total)
T24B4 160:079 JLINK_WriteReg(R7, 0x00000000)  returns 0x00 (0000ms, 0203ms total)
T24B4 160:079 JLINK_WriteReg(R8, 0x00000000)  returns 0x00 (0000ms, 0203ms total)
T24B4 160:079 JLINK_WriteReg(R9, 0x20000160)  returns 0x00 (0000ms, 0203ms total)
T24B4 160:079 JLINK_WriteReg(R10, 0x00000000)  returns 0x00 (0000ms, 0203ms total)
T24B4 160:079 JLINK_WriteReg(R11, 0x00000000)  returns 0x00 (0000ms, 0203ms total)
T24B4 160:079 JLINK_WriteReg(R12, 0x00000000)  returns 0x00 (0000ms, 0203ms total)
T24B4 160:079 JLINK_WriteReg(R13 (SP), 0x20001000)  returns 0x00 (0000ms, 0203ms total)
T24B4 160:079 JLINK_WriteReg(R14, 0x20000001)  returns 0x00 (0000ms, 0203ms total)
T24B4 160:079 JLINK_WriteReg(R15 (PC), 0x200000F4)  returns 0x00 (0000ms, 0203ms total)
T24B4 160:079 JLINK_WriteReg(XPSR, 0x01000000)  returns 0x00 (0000ms, 0203ms total)
T24B4 160:079 JLINK_WriteReg(MSP, 0x20001000)  returns 0x00 (0000ms, 0203ms total)
T24B4 160:079 JLINK_WriteReg(PSP, 0x20001000)  returns 0x00 (0000ms, 0203ms total)
T24B4 160:079 JLINK_WriteReg(CFBP, 0x00000000)  returns 0x00 (0000ms, 0203ms total)
T24B4 160:079 JLINK_SetBPEx(Addr = 0x20000000, Type = 0xFFFFFFF2)  returns 0x00000008 (0000ms, 0203ms total)
T24B4 160:079 JLINK_Go() (0002ms, 0205ms total)
T24B4 160:081 JLINK_IsHalted()  returns FALSE (0001ms, 0206ms total)
T24B4 160:088 JLINK_IsHalted()  returns FALSE (0000ms, 0205ms total)
T24B4 160:090 JLINK_IsHalted()  returns FALSE (0000ms, 0205ms total)
T24B4 160:092 JLINK_IsHalted()  returns FALSE (0000ms, 0205ms total)
T24B4 160:093 JLINK_IsHalted()  returns FALSE (0001ms, 0206ms total)
T24B4 160:095 JLINK_IsHalted()  returns FALSE (0001ms, 0206ms total)
T24B4 160:097 JLINK_IsHalted()  returns FALSE (0000ms, 0205ms total)
T24B4 160:098 JLINK_IsHalted()  returns FALSE (0000ms, 0205ms total)
T24B4 160:100 JLINK_IsHalted()  returns FALSE (0001ms, 0206ms total)
T24B4 160:104 JLINK_IsHalted()  returns FALSE (0001ms, 0206ms total)
T24B4 160:106 JLINK_IsHalted()  returns FALSE (0000ms, 0205ms total)
T24B4 160:108 JLINK_IsHalted()  returns FALSE (0000ms, 0205ms total)
T24B4 160:110 JLINK_IsHalted()  returns FALSE (0000ms, 0205ms total)
T24B4 160:112 JLINK_IsHalted() -- CPU_ReadMem(2 bytes @ 0x20000000)  returns TRUE (0003ms, 0208ms total)
T24B4 160:115 JLINK_ReadReg(R15 (PC))  returns 0x20000000 (0000ms, 0205ms total)
T24B4 160:115 JLINK_ClrBPEx(BPHandle = 0x00000008)  returns 0x00 (0000ms, 0205ms total)
T24B4 160:115 JLINK_ReadReg(R0)  returns 0x00000000 (0000ms, 0205ms total)
T24B4 160:115 JLINK_WriteMem(0x20000164, 0x029C Bytes, ...) -- Data:  AF F2 AF 11 00 23 36 A2 CD E9 00 10 19 46 54 A0 ... -- CPU_WriteMem(668 bytes @ 0x20000164)  returns 0x29C (0006ms, 0211ms total)
T24B4 160:121 JLINK_WriteMem(0x20000400, 0x0164 Bytes, ...) -- Data:  C8 F8 00 90 00 BF E2 E7 14 01 00 20 18 01 00 20 ... -- CPU_WriteMem(356 bytes @ 0x20000400)  returns 0x164 (0004ms, 0215ms total)
T24B4 160:125 JLINK_WriteReg(R0, 0x08001000)  returns 0x00 (0000ms, 0215ms total)
T24B4 160:125 JLINK_WriteReg(R1, 0x00000400)  returns 0x00 (0000ms, 0215ms total)
T24B4 160:125 JLINK_WriteReg(R2, 0x20000164)  returns 0x00 (0000ms, 0215ms total)
T24B4 160:125 JLINK_WriteReg(R3, 0x00000000)  returns 0x00 (0000ms, 0215ms total)
T24B4 160:125 JLINK_WriteReg(R4, 0x00000000)  returns 0x00 (0000ms, 0215ms total)
T24B4 160:125 JLINK_WriteReg(R5, 0x00000000)  returns 0x00 (0000ms, 0215ms total)
T24B4 160:125 JLINK_WriteReg(R6, 0x00000000)  returns 0x00 (0000ms, 0215ms total)
T24B4 160:125 JLINK_WriteReg(R7, 0x00000000)  returns 0x00 (0000ms, 0215ms total)
T24B4 160:125 JLINK_WriteReg(R8, 0x00000000)  returns 0x00 (0000ms, 0215ms total)
T24B4 160:125 JLINK_WriteReg(R9, 0x20000160)  returns 0x00 (0000ms, 0215ms total)
T24B4 160:125 JLINK_WriteReg(R10, 0x00000000)  returns 0x00 (0000ms, 0215ms total)
T24B4 160:125 JLINK_WriteReg(R11, 0x00000000)  returns 0x00 (0000ms, 0215ms total)
T24B4 160:125 JLINK_WriteReg(R12, 0x00000000)  returns 0x00 (0000ms, 0215ms total)
T24B4 160:125 JLINK_WriteReg(R13 (SP), 0x20001000)  returns 0x00 (0000ms, 0215ms total)
T24B4 160:125 JLINK_WriteReg(R14, 0x20000001)  returns 0x00 (0000ms, 0215ms total)
T24B4 160:125 JLINK_WriteReg(R15 (PC), 0x200000F4)  returns 0x00 (0000ms, 0215ms total)
T24B4 160:125 JLINK_WriteReg(XPSR, 0x01000000)  returns 0x00 (0000ms, 0215ms total)
T24B4 160:125 JLINK_WriteReg(MSP, 0x20001000)  returns 0x00 (0000ms, 0215ms total)
T24B4 160:125 JLINK_WriteReg(PSP, 0x20001000)  returns 0x00 (0000ms, 0215ms total)
T24B4 160:125 JLINK_WriteReg(CFBP, 0x00000000)  returns 0x00 (0000ms, 0215ms total)
T24B4 160:125 JLINK_SetBPEx(Addr = 0x20000000, Type = 0xFFFFFFF2)  returns 0x00000009 (0000ms, 0215ms total)
T24B4 160:125 JLINK_Go() (0001ms, 0216ms total)
T24B4 160:126 JLINK_IsHalted()  returns FALSE (0001ms, 0217ms total)
T24B4 160:130 JLINK_IsHalted()  returns FALSE (0000ms, 0216ms total)
T24B4 160:132 JLINK_IsHalted()  returns FALSE (0001ms, 0217ms total)
T24B4 160:136 JLINK_IsHalted()  returns FALSE (0000ms, 0216ms total)
T24B4 160:137 JLINK_IsHalted()  returns FALSE (0001ms, 0217ms total)
T24B4 160:139 JLINK_IsHalted()  returns FALSE (0001ms, 0217ms total)
T24B4 160:141 JLINK_IsHalted()  returns FALSE (0000ms, 0216ms total)
T24B4 160:142 JLINK_IsHalted()  returns FALSE (0001ms, 0217ms total)
T24B4 160:144 JLINK_IsHalted()  returns FALSE (0001ms, 0217ms total)
T24B4 160:146 JLINK_IsHalted()  returns FALSE (0000ms, 0216ms total)
T24B4 160:148 JLINK_IsHalted()  returns FALSE (0000ms, 0216ms total)
T24B4 160:151 JLINK_IsHalted()  returns FALSE (0001ms, 0217ms total)
T24B4 160:153 JLINK_IsHalted()  returns FALSE (0001ms, 0217ms total)
T24B4 160:155 JLINK_IsHalted()  returns FALSE (0000ms, 0216ms total)
T24B4 160:157 JLINK_IsHalted() -- CPU_ReadMem(2 bytes @ 0x20000000)  returns TRUE (0004ms, 0220ms total)
T24B4 160:161 JLINK_ReadReg(R15 (PC))  returns 0x20000000 (0000ms, 0216ms total)
T24B4 160:161 JLINK_ClrBPEx(BPHandle = 0x00000009)  returns 0x00 (0000ms, 0216ms total)
T24B4 160:161 JLINK_ReadReg(R0)  returns 0x00000000 (0000ms, 0216ms total)
T24B4 160:161 JLINK_WriteMem(0x20000164, 0x029C Bytes, ...) -- Data:  4A 42 03 2A 1C DA 1A 4A 12 78 1B 4B 1B 78 98 1A ... -- CPU_WriteMem(668 bytes @ 0x20000164)  returns 0x29C (0006ms, 0222ms total)
T24B4 160:167 JLINK_WriteMem(0x20000400, 0x0164 Bytes, ...) -- Data:  08 2C E4 DB 70 BD 70 B5 00 24 18 E0 04 F1 B0 00 ... -- CPU_WriteMem(356 bytes @ 0x20000400)  returns 0x164 (0004ms, 0226ms total)
T24B4 160:171 JLINK_WriteReg(R0, 0x08001400)  returns 0x00 (0000ms, 0226ms total)
T24B4 160:171 JLINK_WriteReg(R1, 0x00000400)  returns 0x00 (0000ms, 0226ms total)
T24B4 160:171 JLINK_WriteReg(R2, 0x20000164)  returns 0x00 (0000ms, 0226ms total)
T24B4 160:171 JLINK_WriteReg(R3, 0x00000000)  returns 0x00 (0000ms, 0226ms total)
T24B4 160:171 JLINK_WriteReg(R4, 0x00000000)  returns 0x00 (0000ms, 0226ms total)
T24B4 160:171 JLINK_WriteReg(R5, 0x00000000)  returns 0x00 (0000ms, 0226ms total)
T24B4 160:171 JLINK_WriteReg(R6, 0x00000000)  returns 0x00 (0000ms, 0226ms total)
T24B4 160:171 JLINK_WriteReg(R7, 0x00000000)  returns 0x00 (0000ms, 0226ms total)
T24B4 160:171 JLINK_WriteReg(R8, 0x00000000)  returns 0x00 (0000ms, 0226ms total)
T24B4 160:171 JLINK_WriteReg(R9, 0x20000160)  returns 0x00 (0000ms, 0226ms total)
T24B4 160:171 JLINK_WriteReg(R10, 0x00000000)  returns 0x00 (0000ms, 0226ms total)
T24B4 160:171 JLINK_WriteReg(R11, 0x00000000)  returns 0x00 (0000ms, 0226ms total)
T24B4 160:171 JLINK_WriteReg(R12, 0x00000000)  returns 0x00 (0000ms, 0226ms total)
T24B4 160:171 JLINK_WriteReg(R13 (SP), 0x20001000)  returns 0x00 (0000ms, 0226ms total)
T24B4 160:171 JLINK_WriteReg(R14, 0x20000001)  returns 0x00 (0000ms, 0226ms total)
T24B4 160:171 JLINK_WriteReg(R15 (PC), 0x200000F4)  returns 0x00 (0000ms, 0226ms total)
T24B4 160:171 JLINK_WriteReg(XPSR, 0x01000000)  returns 0x00 (0000ms, 0226ms total)
T24B4 160:171 JLINK_WriteReg(MSP, 0x20001000)  returns 0x00 (0000ms, 0226ms total)
T24B4 160:171 JLINK_WriteReg(PSP, 0x20001000)  returns 0x00 (0000ms, 0226ms total)
T24B4 160:171 JLINK_WriteReg(CFBP, 0x00000000)  returns 0x00 (0000ms, 0226ms total)
T24B4 160:171 JLINK_SetBPEx(Addr = 0x20000000, Type = 0xFFFFFFF2)  returns 0x0000000A (0000ms, 0226ms total)
T24B4 160:171 JLINK_Go() (0001ms, 0227ms total)
T24B4 160:172 JLINK_IsHalted()  returns FALSE (0001ms, 0228ms total)
T24B4 160:176 JLINK_IsHalted()  returns FALSE (0001ms, 0228ms total)
T24B4 160:178 JLINK_IsHalted()  returns FALSE (0000ms, 0227ms total)
T24B4 160:181 JLINK_IsHalted()  returns FALSE (0001ms, 0228ms total)
T24B4 160:183 JLINK_IsHalted()  returns FALSE (0001ms, 0228ms total)
T24B4 160:186 JLINK_IsHalted()  returns FALSE (0000ms, 0227ms total)
T24B4 160:187 JLINK_IsHalted()  returns FALSE (0000ms, 0227ms total)
T24B4 160:189 JLINK_IsHalted()  returns FALSE (0001ms, 0228ms total)
T24B4 160:191 JLINK_IsHalted()  returns FALSE (0001ms, 0228ms total)
T24B4 160:193 JLINK_IsHalted()  returns FALSE (0000ms, 0227ms total)
T24B4 160:195 JLINK_IsHalted()  returns FALSE (0000ms, 0227ms total)
T24B4 160:198 JLINK_IsHalted()  returns FALSE (0001ms, 0228ms total)
T24B4 160:200 JLINK_IsHalted()  returns FALSE (0001ms, 0228ms total)
T24B4 160:202 JLINK_IsHalted()  returns FALSE (0000ms, 0227ms total)
T24B4 160:203 JLINK_IsHalted() -- CPU_ReadMem(2 bytes @ 0x20000000)  returns TRUE (0004ms, 0231ms total)
T24B4 160:207 JLINK_ReadReg(R15 (PC))  returns 0x20000000 (0000ms, 0227ms total)
T24B4 160:207 JLINK_ClrBPEx(BPHandle = 0x0000000A)  returns 0x00 (0000ms, 0227ms total)
T24B4 160:207 JLINK_ReadReg(R0)  returns 0x00000000 (0000ms, 0227ms total)
T24B4 160:207 JLINK_WriteMem(0x20000164, 0x029C Bytes, ...) -- Data:  CA B2 2B 46 01 99 FF F7 6B FF 00 BF 60 1C C4 B2 ... -- CPU_WriteMem(668 bytes @ 0x20000164)  returns 0x29C (0006ms, 0233ms total)
T24B4 160:213 JLINK_WriteMem(0x20000400, 0x0164 Bytes, ...) -- Data:  00 28 F7 D0 00 22 AF A1 AF A0 FF F7 B3 F8 00 28 ... -- CPU_WriteMem(356 bytes @ 0x20000400)  returns 0x164 (0004ms, 0237ms total)
T24B4 160:217 JLINK_WriteReg(R0, 0x08001800)  returns 0x00 (0000ms, 0237ms total)
T24B4 160:217 JLINK_WriteReg(R1, 0x00000400)  returns 0x00 (0000ms, 0237ms total)
T24B4 160:217 JLINK_WriteReg(R2, 0x20000164)  returns 0x00 (0000ms, 0237ms total)
T24B4 160:217 JLINK_WriteReg(R3, 0x00000000)  returns 0x00 (0000ms, 0237ms total)
T24B4 160:217 JLINK_WriteReg(R4, 0x00000000)  returns 0x00 (0000ms, 0237ms total)
T24B4 160:217 JLINK_WriteReg(R5, 0x00000000)  returns 0x00 (0000ms, 0237ms total)
T24B4 160:217 JLINK_WriteReg(R6, 0x00000000)  returns 0x00 (0000ms, 0237ms total)
T24B4 160:217 JLINK_WriteReg(R7, 0x00000000)  returns 0x00 (0000ms, 0237ms total)
T24B4 160:217 JLINK_WriteReg(R8, 0x00000000)  returns 0x00 (0000ms, 0237ms total)
T24B4 160:217 JLINK_WriteReg(R9, 0x20000160)  returns 0x00 (0000ms, 0237ms total)
T24B4 160:217 JLINK_WriteReg(R10, 0x00000000)  returns 0x00 (0000ms, 0237ms total)
T24B4 160:217 JLINK_WriteReg(R11, 0x00000000)  returns 0x00 (0000ms, 0237ms total)
T24B4 160:217 JLINK_WriteReg(R12, 0x00000000)  returns 0x00 (0000ms, 0237ms total)
T24B4 160:217 JLINK_WriteReg(R13 (SP), 0x20001000)  returns 0x00 (0000ms, 0237ms total)
T24B4 160:217 JLINK_WriteReg(R14, 0x20000001)  returns 0x00 (0000ms, 0237ms total)
T24B4 160:217 JLINK_WriteReg(R15 (PC), 0x200000F4)  returns 0x00 (0000ms, 0237ms total)
T24B4 160:217 JLINK_WriteReg(XPSR, 0x01000000)  returns 0x00 (0000ms, 0237ms total)
T24B4 160:217 JLINK_WriteReg(MSP, 0x20001000)  returns 0x00 (0000ms, 0237ms total)
T24B4 160:217 JLINK_WriteReg(PSP, 0x20001000)  returns 0x00 (0000ms, 0237ms total)
T24B4 160:217 JLINK_WriteReg(CFBP, 0x00000000)  returns 0x00 (0000ms, 0237ms total)
T24B4 160:217 JLINK_SetBPEx(Addr = 0x20000000, Type = 0xFFFFFFF2)  returns 0x0000000B (0000ms, 0237ms total)
T24B4 160:217 JLINK_Go() (0001ms, 0238ms total)
T24B4 160:218 JLINK_IsHalted()  returns FALSE (0001ms, 0239ms total)
T24B4 160:222 JLINK_IsHalted()  returns FALSE (0000ms, 0238ms total)
T24B4 160:224 JLINK_IsHalted()  returns FALSE (0000ms, 0238ms total)
T24B4 160:226 JLINK_IsHalted()  returns FALSE (0001ms, 0239ms total)
T24B4 160:230 JLINK_IsHalted()  returns FALSE (0001ms, 0239ms total)
T24B4 160:232 JLINK_IsHalted()  returns FALSE (0000ms, 0238ms total)
T24B4 160:233 JLINK_IsHalted()  returns FALSE (0001ms, 0239ms total)
T24B4 160:235 JLINK_IsHalted()  returns FALSE (0001ms, 0239ms total)
T24B4 160:237 JLINK_IsHalted()  returns FALSE (0000ms, 0238ms total)
T24B4 160:239 JLINK_IsHalted()  returns FALSE (0000ms, 0238ms total)
T24B4 160:241 JLINK_IsHalted()  returns FALSE (0001ms, 0239ms total)
T24B4 160:245 JLINK_IsHalted()  returns FALSE (0000ms, 0238ms total)
T24B4 160:247 JLINK_IsHalted()  returns FALSE (0000ms, 0238ms total)
T24B4 160:248 JLINK_IsHalted()  returns FALSE (0001ms, 0239ms total)
T24B4 160:250 JLINK_IsHalted() -- CPU_ReadMem(2 bytes @ 0x20000000)  returns TRUE (0004ms, 0242ms total)
T24B4 160:254 JLINK_ReadReg(R15 (PC))  returns 0x20000000 (0000ms, 0238ms total)
T24B4 160:254 JLINK_ClrBPEx(BPHandle = 0x0000000B)  returns 0x00 (0000ms, 0238ms total)
T24B4 160:254 JLINK_ReadReg(R0)  returns 0x00000000 (0000ms, 0238ms total)
T24B4 160:254 JLINK_WriteMem(0x20000164, 0x029C Bytes, ...) -- Data:  00 68 B0 F5 FA 6F F8 D3 00 E0 4A E0 8B 4B 67 4A ... -- CPU_WriteMem(668 bytes @ 0x20000164)  returns 0x29C (0006ms, 0244ms total)
T24B4 160:260 JLINK_WriteMem(0x20000400, 0x0164 Bytes, ...) -- Data:  22 2C 22 25 73 22 0D 0A 00 00 00 00 57 49 46 49 ... -- CPU_WriteMem(356 bytes @ 0x20000400)  returns 0x164 (0003ms, 0247ms total)
T24B4 160:263 JLINK_WriteReg(R0, 0x08001C00)  returns 0x00 (0000ms, 0247ms total)
T24B4 160:263 JLINK_WriteReg(R1, 0x00000400)  returns 0x00 (0000ms, 0247ms total)
T24B4 160:263 JLINK_WriteReg(R2, 0x20000164)  returns 0x00 (0000ms, 0247ms total)
T24B4 160:263 JLINK_WriteReg(R3, 0x00000000)  returns 0x00 (0000ms, 0247ms total)
T24B4 160:263 JLINK_WriteReg(R4, 0x00000000)  returns 0x00 (0000ms, 0247ms total)
T24B4 160:263 JLINK_WriteReg(R5, 0x00000000)  returns 0x00 (0000ms, 0247ms total)
T24B4 160:263 JLINK_WriteReg(R6, 0x00000000)  returns 0x00 (0000ms, 0247ms total)
T24B4 160:263 JLINK_WriteReg(R7, 0x00000000)  returns 0x00 (0000ms, 0247ms total)
T24B4 160:263 JLINK_WriteReg(R8, 0x00000000)  returns 0x00 (0000ms, 0247ms total)
T24B4 160:263 JLINK_WriteReg(R9, 0x20000160)  returns 0x00 (0000ms, 0247ms total)
T24B4 160:263 JLINK_WriteReg(R10, 0x00000000)  returns 0x00 (0000ms, 0247ms total)
T24B4 160:263 JLINK_WriteReg(R11, 0x00000000)  returns 0x00 (0000ms, 0247ms total)
T24B4 160:263 JLINK_WriteReg(R12, 0x00000000)  returns 0x00 (0000ms, 0247ms total)
T24B4 160:263 JLINK_WriteReg(R13 (SP), 0x20001000)  returns 0x00 (0000ms, 0247ms total)
T24B4 160:263 JLINK_WriteReg(R14, 0x20000001)  returns 0x00 (0000ms, 0247ms total)
T24B4 160:263 JLINK_WriteReg(R15 (PC), 0x200000F4)  returns 0x00 (0000ms, 0247ms total)
T24B4 160:263 JLINK_WriteReg(XPSR, 0x01000000)  returns 0x00 (0000ms, 0247ms total)
T24B4 160:263 JLINK_WriteReg(MSP, 0x20001000)  returns 0x00 (0000ms, 0247ms total)
T24B4 160:263 JLINK_WriteReg(PSP, 0x20001000)  returns 0x00 (0000ms, 0247ms total)
T24B4 160:263 JLINK_WriteReg(CFBP, 0x00000000)  returns 0x00 (0000ms, 0247ms total)
T24B4 160:263 JLINK_SetBPEx(Addr = 0x20000000, Type = 0xFFFFFFF2)  returns 0x0000000C (0000ms, 0247ms total)
T24B4 160:263 JLINK_Go() (0002ms, 0249ms total)
T24B4 160:265 JLINK_IsHalted()  returns FALSE (0001ms, 0250ms total)
T24B4 160:269 JLINK_IsHalted()  returns FALSE (0000ms, 0249ms total)
T24B4 160:270 JLINK_IsHalted()  returns FALSE (0001ms, 0250ms total)
T24B4 160:272 JLINK_IsHalted()  returns FALSE (0000ms, 0249ms total)
T24B4 160:274 JLINK_IsHalted()  returns FALSE (0001ms, 0250ms total)
T24B4 160:278 JLINK_IsHalted()  returns FALSE (0000ms, 0249ms total)
T24B4 160:279 JLINK_IsHalted()  returns FALSE (0001ms, 0250ms total)
T24B4 160:281 JLINK_IsHalted()  returns FALSE (0001ms, 0250ms total)
T24B4 160:283 JLINK_IsHalted()  returns FALSE (0000ms, 0249ms total)
T24B4 160:284 JLINK_IsHalted()  returns FALSE (0001ms, 0250ms total)
T24B4 160:286 JLINK_IsHalted()  returns FALSE (0000ms, 0249ms total)
T24B4 160:288 JLINK_IsHalted()  returns FALSE (0000ms, 0249ms total)
T24B4 160:290 JLINK_IsHalted()  returns FALSE (0001ms, 0250ms total)
T24B4 160:294 JLINK_IsHalted()  returns FALSE (0000ms, 0249ms total)
T24B4 160:295 JLINK_IsHalted() -- CPU_ReadMem(2 bytes @ 0x20000000)  returns TRUE (0004ms, 0253ms total)
T24B4 160:299 JLINK_ReadReg(R15 (PC))  returns 0x20000000 (0000ms, 0249ms total)
T24B4 160:299 JLINK_ClrBPEx(BPHandle = 0x0000000C)  returns 0x00 (0000ms, 0249ms total)
T24B4 160:299 JLINK_ReadReg(R0)  returns 0x00000000 (0000ms, 0249ms total)
T24B4 160:299 JLINK_WriteMem(0x20000164, 0x029C Bytes, ...) -- Data:  2A 48 01 F0 D8 FF 2A 48 00 68 40 1C 28 49 08 60 ... -- CPU_WriteMem(668 bytes @ 0x20000164)  returns 0x29C (0006ms, 0255ms total)
T24B4 160:305 JLINK_WriteMem(0x20000400, 0x0164 Bytes, ...) -- Data:  00 12 7A 00 54 02 00 20 00 09 3D 00 58 02 00 20 ... -- CPU_WriteMem(356 bytes @ 0x20000400)  returns 0x164 (0004ms, 0259ms total)
T24B4 160:309 JLINK_WriteReg(R0, 0x08002000)  returns 0x00 (0000ms, 0259ms total)
T24B4 160:309 JLINK_WriteReg(R1, 0x00000400)  returns 0x00 (0000ms, 0259ms total)
T24B4 160:309 JLINK_WriteReg(R2, 0x20000164)  returns 0x00 (0000ms, 0259ms total)
T24B4 160:309 JLINK_WriteReg(R3, 0x00000000)  returns 0x00 (0000ms, 0259ms total)
T24B4 160:309 JLINK_WriteReg(R4, 0x00000000)  returns 0x00 (0000ms, 0259ms total)
T24B4 160:309 JLINK_WriteReg(R5, 0x00000000)  returns 0x00 (0000ms, 0259ms total)
T24B4 160:309 JLINK_WriteReg(R6, 0x00000000)  returns 0x00 (0000ms, 0259ms total)
T24B4 160:309 JLINK_WriteReg(R7, 0x00000000)  returns 0x00 (0000ms, 0259ms total)
T24B4 160:309 JLINK_WriteReg(R8, 0x00000000)  returns 0x00 (0000ms, 0259ms total)
T24B4 160:309 JLINK_WriteReg(R9, 0x20000160)  returns 0x00 (0000ms, 0259ms total)
T24B4 160:309 JLINK_WriteReg(R10, 0x00000000)  returns 0x00 (0000ms, 0259ms total)
T24B4 160:309 JLINK_WriteReg(R11, 0x00000000)  returns 0x00 (0000ms, 0259ms total)
T24B4 160:309 JLINK_WriteReg(R12, 0x00000000)  returns 0x00 (0000ms, 0259ms total)
T24B4 160:309 JLINK_WriteReg(R13 (SP), 0x20001000)  returns 0x00 (0000ms, 0259ms total)
T24B4 160:309 JLINK_WriteReg(R14, 0x20000001)  returns 0x00 (0000ms, 0259ms total)
T24B4 160:309 JLINK_WriteReg(R15 (PC), 0x200000F4)  returns 0x00 (0000ms, 0259ms total)
T24B4 160:309 JLINK_WriteReg(XPSR, 0x01000000)  returns 0x00 (0000ms, 0259ms total)
T24B4 160:309 JLINK_WriteReg(MSP, 0x20001000)  returns 0x00 (0000ms, 0259ms total)
T24B4 160:309 JLINK_WriteReg(PSP, 0x20001000)  returns 0x00 (0000ms, 0259ms total)
T24B4 160:309 JLINK_WriteReg(CFBP, 0x00000000)  returns 0x00 (0000ms, 0259ms total)
T24B4 160:309 JLINK_SetBPEx(Addr = 0x20000000, Type = 0xFFFFFFF2)  returns 0x0000000D (0000ms, 0259ms total)
T24B4 160:309 JLINK_Go() (0001ms, 0260ms total)
T24B4 160:310 JLINK_IsHalted()  returns FALSE (0001ms, 0261ms total)
T24B4 160:314 JLINK_IsHalted()  returns FALSE (0001ms, 0261ms total)
T24B4 160:316 JLINK_IsHalted()  returns FALSE (0000ms, 0260ms total)
T24B4 160:317 JLINK_IsHalted()  returns FALSE (0001ms, 0261ms total)
